Title: test 
Date: Mon Aug  5 16:15:00  2013
Plotname: Transient Analysis
Flags: real
No. Variables: 4
No. Points: 65
Variables:
	0	time	time
	1	in	voltage
	2	out	voltage
	3	i(vin)	current
Values:
 0	0.000000000000000e+00
	0.000000000000000e+00
	0.000000000000000e+00
	0.000000000000000e+00

 1	8.000000000000000e-14
	0.000000000000000e+00
	0.000000000000000e+00
	0.000000000000000e+00

 2	1.600000000000000e-13
	0.000000000000000e+00
	0.000000000000000e+00
	0.000000000000000e+00

 3	3.200000000000000e-13
	0.000000000000000e+00
	0.000000000000000e+00
	0.000000000000000e+00

 4	6.400000000000000e-13
	0.000000000000000e+00
	0.000000000000000e+00
	0.000000000000000e+00

 5	1.280000000000000e-12
	0.000000000000000e+00
	0.000000000000000e+00
	0.000000000000000e+00

 6	2.560000000000000e-12
	0.000000000000000e+00
	0.000000000000000e+00
	0.000000000000000e+00

 7	5.120000000000000e-12
	0.000000000000000e+00
	0.000000000000000e+00
	0.000000000000000e+00

 8	1.024000000000000e-11
	0.000000000000000e+00
	0.000000000000000e+00
	0.000000000000000e+00

 9	2.048000000000000e-11
	0.000000000000000e+00
	0.000000000000000e+00
	0.000000000000000e+00

 10	3.648000000000000e-11
	0.000000000000000e+00
	0.000000000000000e+00
	0.000000000000000e+00

 11	5.248000000000000e-11
	0.000000000000000e+00
	0.000000000000000e+00
	0.000000000000000e+00

 12	6.847999999999999e-11
	0.000000000000000e+00
	0.000000000000000e+00
	0.000000000000000e+00

 13	8.447999999999999e-11
	0.000000000000000e+00
	0.000000000000000e+00
	0.000000000000000e+00

 14	1.000000000000000e-10
	0.000000000000000e+00
	0.000000000000000e+00
	0.000000000000000e+00

 15	1.016000000000000e-10
	5.759999999999999e-02
	4.571428571428571e-04
	-2.857142857142857e-05

 16	1.048000000000000e-10
	1.728000000000000e-01
	2.278458049886621e-03
	-8.526077097505667e-05

 17	1.112000000000000e-10
	4.031999999999999e-01
	1.127756173335476e-02
	-1.959612191333226e-04

 18	1.240000000000000e-10
	8.640000000000004e-01
	4.987120131578238e-02
	-4.070643993421090e-04

 19	1.400000000000000e-10
	1.440000000000000e+00
	1.346503396761068e-01
	-6.526748301619469e-04

 20	1.500000000000000e-10
	1.800000000000000e+00
	2.071064206675162e-01
	-7.964467896662420e-04

 21	1.516000000000000e-10
	1.800000000000000e+00
	2.197484332019010e-01
	-7.901257833990495e-04

 22	1.548000000000000e-10
	1.800000000000000e+00
	2.448317914050454e-01
	-7.775841042974773e-04

 23	1.612000000000000e-10
	1.800000000000000e+00
	2.938134672663040e-01
	-7.530932663668481e-04

 24	1.740000000000000e-10
	1.800000000000000e+00
	3.872203840249828e-01
	-7.063898079875087e-04

 25	1.900000000000000e-10
	1.800000000000000e+00
	4.958957390999840e-01
	-6.520521304500081e-04

 26	2.060000000000000e-10
	1.800000000000000e+00
	5.962114514769083e-01
	-6.018942742615459e-04

 27	2.220000000000000e-10
	1.800000000000000e+00
	6.888105705940692e-01
	-5.555947147029654e-04

 28	2.380000000000000e-10
	1.800000000000000e+00
	7.742866805483717e-01
	-5.128566597258142e-04

 29	2.540000000000000e-10
	1.800000000000000e+00
	8.531877051215738e-01
	-4.734061474392132e-04

 30	2.700000000000000e-10
	1.800000000000000e+00
	9.260194201122219e-01
	-4.369902899438891e-04

 31	2.860000000000000e-10
	1.800000000000000e+00
	9.932486954882048e-01
	-4.033756522558977e-04

 32	3.020000000000000e-10
	1.800000000000000e+00
	1.055306488142958e+00
	-3.723467559285209e-04

 33	3.180000000000000e-10
	1.800000000000000e+00
	1.112590604439654e+00
	-3.437046977801732e-04

 34	3.340000000000000e-10
	1.800000000000000e+00
	1.165468250251988e+00
	-3.172658748740060e-04

 35	3.500000000000000e-10
	1.800000000000000e+00
	1.214278384847989e+00
	-2.928608075760055e-04

 36	3.660000000000000e-10
	1.800000000000000e+00
	1.259333893705836e+00
	-2.703330531470820e-04

 37	3.820000000000000e-10
	1.800000000000000e+00
	1.300923594190003e+00
	-2.495382029049987e-04

 38	3.980000000000000e-10
	1.800000000000000e+00
	1.339314086944619e+00
	-2.303429565276908e-04

 39	4.140000000000000e-10
	1.800000000000000e+00
	1.374751464871956e+00
	-2.126242675640223e-04

 40	4.300000000000000e-10
	1.800000000000000e+00
	1.407462890651036e+00
	-1.962685546744822e-04

 41	4.460000000000000e-10
	1.800000000000000e+00
	1.437658052908649e+00
	-1.811709735456757e-04

 42	4.620000000000000e-10
	1.800000000000000e+00
	1.465530510377215e+00
	-1.672347448113927e-04

 43	4.780000000000000e-10
	1.800000000000000e+00
	1.491258932655891e+00
	-1.543705336720547e-04

 44	4.940000000000001e-10
	1.800000000000000e+00
	1.515008245528515e+00
	-1.424958772357426e-04

 45	5.100000000000001e-10
	1.800000000000000e+00
	1.536930688180168e+00
	-1.315346559099160e-04

 46	5.260000000000001e-10
	1.800000000000000e+00
	1.557166789089386e+00
	-1.214166054553069e-04

 47	5.420000000000002e-10
	1.800000000000000e+00
	1.575846266851742e+00
	-1.120768665741292e-04

 48	5.580000000000002e-10
	1.800000000000000e+00
	1.593088861709300e+00
	-1.034555691453500e-04

 49	5.740000000000003e-10
	1.800000000000000e+00
	1.609005103116277e+00
	-9.549744844186150e-05

 50	5.900000000000003e-10
	1.800000000000000e+00
	1.623697018261179e+00
	-8.815149086941051e-05

 51	6.060000000000004e-10
	1.800000000000000e+00
	1.637258786087243e+00
	-8.137060695637870e-05

 52	6.220000000000004e-10
	1.800000000000000e+00
	1.649777341003609e+00
	-7.511132949819543e-05

 53	6.380000000000005e-10
	1.800000000000000e+00
	1.661332930157178e+00
	-6.933353492141097e-05

 54	6.540000000000005e-10
	1.800000000000000e+00
	1.671999627837396e+00
	-6.400018608130221e-05

 55	6.700000000000006e-10
	1.800000000000000e+00
	1.681845810311442e+00
	-5.907709484427885e-05

 56	6.860000000000006e-10
	1.800000000000000e+00
	1.690934594133639e+00
	-5.453270293318045e-05

 57	7.020000000000007e-10
	1.800000000000000e+00
	1.699324240738744e+00
	-5.033787963062812e-05

 58	7.180000000000007e-10
	1.800000000000000e+00
	1.707068529912687e+00
	-4.646573504365657e-05

 59	7.340000000000008e-10
	1.800000000000000e+00
	1.714217104534788e+00
	-4.289144773260607e-05

 60	7.500000000000008e-10
	1.800000000000000e+00
	1.720815788801342e+00
	-3.959210559932884e-05

 61	7.660000000000009e-10
	1.800000000000000e+00
	1.726906881970470e+00
	-3.654655901476518e-05

 62	7.820000000000009e-10
	1.800000000000000e+00
	1.732529429511203e+00
	-3.373528524439843e-05

 63	7.980000000000010e-10
	1.800000000000000e+00
	1.737719473394957e+00
	-3.114026330252142e-05

 64	8.000000000000000e-10
	1.800000000000000e+00
	1.738339180127345e+00
	-3.083040993632742e-05

